            * c:\users\jagad\esim-workspace\dflipflop\dflipflop.cir
            Transient Analysis  Wed Mar 09 20:19:27  2022
--------------------------------------------------------------------------------
Index   time            v1#branch       v2#branch       
--------------------------------------------------------------------------------
0	0.000000e+000	0.000000e+000	0.000000e+000	
1	1.000000e-002	-1.34674e-010	-6.69507e-011	
2	2.000000e-002	-1.61307e-010	-9.52902e-011	
3	4.000000e-002	-2.49067e-010	-1.97432e-010	
4	8.000000e-002	-2.10555e-010	-1.35329e-010	
5	1.318416e-001	-7.29666e-010	-6.68287e-010	
6	2.156810e-001	-3.25342e-010	-1.78571e-010	
7	3.137608e-001	-8.24215e-010	-6.67045e-010	
8	5.099204e-001	-4.32059e-010	-1.77626e-010	
9	9.022396e-001	-8.46529e-010	-6.66308e-010	
10	1.000000e+000	-4.33247e-010	-1.77367e-010	
11	1.023856e+000	-6.97021e-012	-8.55857e-015	
12	1.071569e+000	-6.94757e-012	5.216433e-015	
13	1.166994e+000	-6.95235e-012	-5.21601e-015	
14	1.357845e+000	-6.92373e-012	5.216188e-015	
15	1.739546e+000	-6.90480e-012	-5.21615e-015	
16	2.502948e+000	-6.82915e-012	5.216127e-015	
17	4.029753e+000	-6.71770e-012	-5.21612e-015	
18	6.000000e+000	-6.54805e-012	5.216109e-015	
19	6.100000e+000	6.267663e-010	4.218168e-010	
20	6.300000e+000	6.276081e-010	4.219668e-010	
21	6.700000e+000	5.520109e-010	4.224407e-010	
22	7.000000e+000	6.373146e-010	2.468513e-010	
23	7.019809e+000	1.135054e-010	4.957986e-011	
24	7.059428e+000	1.588476e-011	6.055260e-012	
25	7.138666e+000	1.634988e-011	5.446670e-012	
26	7.297141e+000	7.091408e-013	-3.07789e-012	
27	7.555617e+000	7.623363e-012	3.503551e-012	
28	8.072568e+000	-4.77563e-012	-3.48438e-012	
29	9.106470e+000	4.658370e-012	3.514783e-012	
30	1.117427e+001	-4.61745e-012	-3.52917e-012	
31	1.382004e+001	4.590258e-012	3.539912e-012	
32	1.646580e+001	-4.56621e-012	-3.55024e-012	
33	1.911157e+001	4.544549e-012	3.560162e-012	
34	2.175733e+001	-4.52482e-012	-3.56969e-012	
35	2.440309e+001	4.506606e-012	3.578842e-012	
36	2.704886e+001	-4.48965e-012	-3.58764e-012	
37	2.969462e+001	4.473685e-012	3.596105e-012	
38	3.234038e+001	-4.45859e-012	-3.60425e-012	
39	3.498615e+001	4.444209e-012	3.612103e-012	
40	3.763191e+001	-4.43047e-012	-3.61967e-012	
41	4.027767e+001	4.417270e-012	3.626975e-012	
42	4.292343e+001	-4.40458e-012	-3.63403e-012	
43	4.556920e+001	4.392329e-012	3.640840e-012	
44	4.821496e+001	-4.38051e-012	-3.64743e-012	
45	5.000000e+001	4.363660e-012	3.656799e-012	
46	5.010000e+001	-2.50318e-010	-1.86346e-010	
47	5.030000e+001	-8.29804e-010	-6.59237e-010	
48	5.065160e+001	-4.32849e-010	-1.85236e-010	
49	5.099081e+001	-8.46467e-010	-6.58550e-010	
50	5.100000e+001	-4.33518e-010	-1.85137e-010	
51	5.101442e+001	-6.97435e-012	-1.25031e-014	
52	5.104326e+001	-6.94411e-012	1.031092e-014	
53	5.109305e+001	-6.96396e-012	-1.03103e-014	
54	5.119263e+001	-6.93167e-012	1.031001e-014	

Index   time            v1#branch       v2#branch       
--------------------------------------------------------------------------------
55	5.139180e+001	-6.93904e-012	-1.03099e-014	
56	5.179013e+001	-6.88211e-012	1.030979e-014	
57	5.258679e+001	-6.84035e-012	-1.03097e-014	
58	5.418012e+001	-6.68704e-012	1.030973e-014	
59	5.600000e+001	-6.56621e-012	-1.03097e-014	
60	5.610000e+001	6.267665e-010	4.218168e-010	
61	5.630000e+001	6.276084e-010	4.219668e-010	
62	5.670000e+001	5.519836e-010	4.224407e-010	
63	5.700000e+001	6.374929e-010	2.468500e-010	
64	5.701981e+001	1.135245e-010	4.958497e-011	
65	5.705943e+001	1.588161e-011	6.055713e-012	
66	5.713867e+001	1.635125e-011	5.446209e-012	
67	5.729714e+001	7.078715e-013	-3.07767e-012	
68	5.755559e+001	7.624721e-012	3.503430e-012	
69	5.807249e+001	-4.77647e-012	-3.48427e-012	
70	5.910628e+001	4.659287e-012	3.514695e-012	
71	6.117387e+001	-4.61839e-012	-3.52909e-012	
72	6.381964e+001	4.591198e-012	3.539835e-012	
73	6.646540e+001	-4.56715e-012	-3.55017e-012	
74	6.911116e+001	4.545495e-012	3.560092e-012	
75	7.175693e+001	-4.52577e-012	-3.56962e-012	
76	7.440269e+001	4.507549e-012	3.578779e-012	
77	7.704845e+001	-4.49059e-012	-3.58758e-012	
78	7.969422e+001	4.474620e-012	3.596049e-012	
79	8.233998e+001	-4.45953e-012	-3.60420e-012	
80	8.498574e+001	4.445135e-012	3.612054e-012	
81	8.763151e+001	-4.43139e-012	-3.61962e-012	
82	9.027727e+001	4.418185e-012	3.626932e-012	
83	9.292303e+001	-4.40549e-012	-3.63399e-012	
84	9.556879e+001	4.393232e-012	3.640803e-012	
85	9.821456e+001	-4.38140e-012	-3.64739e-012	
86	1.000000e+002	4.364554e-012	3.656767e-012	
87	1.001000e+002	-2.50318e-010	-1.86346e-010	
88	1.003000e+002	-8.29804e-010	-6.59237e-010	
89	1.006516e+002	-4.32849e-010	-1.85236e-010	
90	1.009908e+002	-8.46468e-010	-6.58550e-010	
91	1.010000e+002	-4.33518e-010	-1.85137e-010	
92	1.010144e+002	-6.97427e-012	-1.25031e-014	
93	1.010433e+002	-6.94414e-012	1.031092e-014	
94	1.010930e+002	-6.96389e-012	-1.03103e-014	
95	1.011926e+002	-6.93166e-012	1.031001e-014	
96	1.013918e+002	-6.93902e-012	-1.03099e-014	
97	1.017901e+002	-6.88201e-012	1.030979e-014	
98	1.025868e+002	-6.84031e-012	-1.03097e-014	
99	1.041801e+002	-6.68709e-012	1.030973e-014	
100	1.060000e+002	-6.56617e-012	-1.03097e-014	
101	1.061000e+002	6.267665e-010	4.218168e-010	
102	1.063000e+002	6.276084e-010	4.219668e-010	
103	1.067000e+002	5.519838e-010	4.224407e-010	
104	1.070000e+002	6.374918e-010	2.468500e-010	
105	1.070198e+002	1.135244e-010	4.958494e-011	
106	1.070594e+002	1.588162e-011	6.055709e-012	
107	1.071387e+002	1.635124e-011	5.446212e-012	
108	1.072971e+002	7.078803e-013	-3.07767e-012	
109	1.075556e+002	7.624714e-012	3.503432e-012	
110	1.080725e+002	-4.77647e-012	-3.48427e-012	
111	1.091063e+002	4.659281e-012	3.514697e-012	
112	1.111739e+002	-4.61838e-012	-3.52909e-012	

Index   time            v1#branch       v2#branch       
--------------------------------------------------------------------------------
113	1.138196e+002	4.591192e-012	3.539837e-012	
114	1.164654e+002	-4.56715e-012	-3.55017e-012	
115	1.191112e+002	4.545489e-012	3.560093e-012	
116	1.217569e+002	-4.52576e-012	-3.56962e-012	
117	1.244027e+002	4.507544e-012	3.578781e-012	
118	1.270485e+002	-4.49058e-012	-3.58758e-012	
119	1.296942e+002	4.474615e-012	3.596050e-012	
120	1.323400e+002	-4.45952e-012	-3.60420e-012	
121	1.349857e+002	4.445130e-012	3.612055e-012	
122	1.376315e+002	-4.43139e-012	-3.61963e-012	
123	1.402773e+002	4.418180e-012	3.626933e-012	
124	1.429230e+002	-4.40549e-012	-3.63399e-012	
125	1.455688e+002	4.393227e-012	3.640804e-012	
126	1.482146e+002	-4.38140e-012	-3.64739e-012	
127	1.500000e+002	4.364549e-012	3.656768e-012	
128	1.501000e+002	-2.50318e-010	-1.86346e-010	
129	1.503000e+002	-8.29804e-010	-6.59237e-010	
130	1.506516e+002	-4.32849e-010	-1.85236e-010	
131	1.509908e+002	-8.46467e-010	-6.58550e-010	
132	1.510000e+002	-4.33518e-010	-1.85137e-010	
133	1.510144e+002	-6.97439e-012	-1.25031e-014	
134	1.510433e+002	-6.94412e-012	1.031092e-014	
135	1.510930e+002	-6.96388e-012	-1.03103e-014	
136	1.511926e+002	-6.93168e-012	1.031002e-014	
137	1.513918e+002	-6.93889e-012	-1.03099e-014	
138	1.517901e+002	-6.88201e-012	1.030979e-014	
139	1.525868e+002	-6.84041e-012	-1.03098e-014	
140	1.541801e+002	-6.68707e-012	1.030973e-014	
141	1.560000e+002	-6.56623e-012	-1.03097e-014	
142	1.561000e+002	6.267665e-010	4.218168e-010	
143	1.563000e+002	6.276084e-010	4.219668e-010	
144	1.567000e+002	5.519836e-010	4.224407e-010	
145	1.570000e+002	6.374930e-010	2.468499e-010	
146	1.570198e+002	1.135245e-010	4.958498e-011	
147	1.570594e+002	1.588161e-011	6.055713e-012	
148	1.571387e+002	1.635125e-011	5.446209e-012	
149	1.572971e+002	7.078718e-013	-3.07767e-012	
150	1.575556e+002	7.624723e-012	3.503430e-012	
151	1.580725e+002	-4.77648e-012	-3.48427e-012	
152	1.591063e+002	4.659287e-012	3.514695e-012	
153	1.611739e+002	-4.61839e-012	-3.52909e-012	
154	1.638196e+002	4.591198e-012	3.539836e-012	
155	1.664654e+002	-4.56715e-012	-3.55017e-012	
156	1.691112e+002	4.545495e-012	3.560092e-012	
157	1.717569e+002	-4.52577e-012	-3.56962e-012	
158	1.744027e+002	4.507550e-012	3.578779e-012	
159	1.770485e+002	-4.49059e-012	-3.58758e-012	
160	1.796942e+002	4.474621e-012	3.596049e-012	
161	1.823400e+002	-4.45953e-012	-3.60420e-012	
162	1.849857e+002	4.445135e-012	3.612054e-012	
163	1.876315e+002	-4.43139e-012	-3.61962e-012	
164	1.902773e+002	4.418185e-012	3.626932e-012	
165	1.929230e+002	-4.40549e-012	-3.63399e-012	
166	1.955688e+002	4.393233e-012	3.640803e-012	
167	1.982146e+002	-4.38141e-012	-3.64739e-012	
168	2.000000e+002	4.364554e-012	3.656767e-012	
